
Read address :      00 03 00 00 00 01 85 db


all off :           01 0F 00 00 00 08 01 00 FE 95

all on :            01 0F 00 00 00 08 01 FF BE D5
 

rele 1 flip：        01 05 00 00 55 00 F2 9A
rele 2 flip：        01 05 00 01 55 00 A3 5A
rele 3 flip：        01 05 00 02 55 00 53 5A
rele 4 flip：        01 05 00 03 55 00 02 9A

full flip :         01 05 00 00 5A 00 F7 6A


read all rele status :    01 02 00 00 00 08 79 CC

read all channel status :   01 01 00 00 00 08 3D CC


read all imput status :   01 02 00 00 00 00 78 0a

in 1 press :          01 02 01 01 60 48   
in 2 press :          01 02 01 02 20 49   
in 3 press :          01 02 01 04 A0 4B   
in 4 press :          01 02 01 08 A0 4E   


rele 1 on :         01 05 00 00 FF 00 8C 3A

rele 1 off :        01 05 00 00 00 00 CD CA

rele 2 on :         01 05 00 01 FF 00 DD FA 

rele 2 off :        01 05 00 01 00 00 9C 0A 

rele 3 on :         01 05 00 02 FF 00 2D FA

rele 3 off :        01 05 00 02 00 00 6c 0a 

rele 4 on :         01 05 00 03 FF 00 7C 3A 

rele 4 off :        01 05 00 03 00 00 3D CA
